# Hz S RI R 50
2000000 -0.0032930325351529922 0.05607621715362829
2480000 -0.0016066772497494192 0.04642506816456598
2960000 -0.0007105553552177826 0.040517963326762683
3440000 -5.682389096681073e-05 0.03582122991998177
3920000 7.103941350445838e-05 0.033191943441877786
4400000 0.00010316803416771294 0.030993733056388435
4880000 0.0002058475886058001 0.029545006156421635
5360000 0.0003661727729065938 0.028482578065109454
5840000 0.00022571409060347675 0.027824622143788637
6320000 6.851890721982546e-05 0.02728855703202431
6800000 0.000230045853374113 0.027162045943321986
7280000 0.00016765163814360214 0.026754245930371713
7760000 0.0006033514401252336 0.026995893811879695
8240000 0.00022651790016223165 0.026942849559026375
8720000 0.0003875901385014371 0.027285009678037566
9200000 0.0004069095757383369 0.02758036108521849
9680000 0.0004493432630439009 0.02771207608082095
10160000 0.0003817820442740651 0.02818711709601441
10640000 0.00039785055303225643 0.028509605585001273
11120000 0.0002725995771808511 0.028832969138017136
11600000 0.0004567209071482725 0.029448912477019636
12080000 0.0005500851940770904 0.02951337697871548
12560000 0.0008994684119970969 0.03001938294598619
13040000 0.0004941910168223111 0.030040399454223765
13520000 0.0005959392550213174 0.03005286876955975
14000000 -0.0003566665044339425 0.029462510832162603
14480000 -0.00357131123712596 0.028345012912647606
14960000 -0.009759491433133318 0.036830470144232366
15440000 -0.002626503156479957 0.04019670621068414
15920000 -0.00030047197085271096 0.03970301180731556
16400000 0.0006384541270721302 0.0393202769596499
16880000 0.0008395867811054218 0.04001882195121532
17360000 0.001043454602747564 0.04035453811837622
17840000 0.0013527952355681591 0.04076450586817233
18320000 0.0014679438246372894 0.041137265627557346
18800000 0.0016281400496674372 0.041939676809640176
19280000 0.001669127288216352 0.0426478134747721
19760000 0.0017286708043742275 0.0431928096034714
20240000 0.0023419380896312135 0.04387638328731405
20720000 0.002413566752946912 0.04473086415857024
21200000 0.0021563705157810237 0.04527833187729377
21680000 0.0026084481079851735 0.04623524310218799
22160000 0.002371244937177218 0.047005290180135405
22640000 0.0028312265852894624 0.04754119266865439
23120000 0.0026137233638289683 0.04811752361768343
23600000 0.0029190551894312166 0.04912807248390339
24080000 0.003259104031163577 0.04999147246395151
24560000 0.003716343922988818 0.05089396649442246
25040000 0.0035043240647173192 0.05169751085049904
25520000 0.003607291569499689 0.052691864654324384
26000000 0.004021829300626682 0.05305289667398567
26480000 0.0039481939617282795 0.054307653508755084
26960000 0.004116113671974097 0.05447977336045023
27440000 0.004662946235919727 0.05535306701069772
27920000 0.004581152448644264 0.05601050133733884
28400000 0.004596327477513593 0.056636233089149425
28880000 0.004968259159515927 0.05769459591102276
29360000 0.005457781779715145 0.05853729268229296
29840000 0.005360118439809577 0.059219679280443464
30320000 0.0056027162924284545 0.05977678626361505
30800000 0.00587853987912791 0.06073433159840232
31280000 0.006018278357515279 0.06133871337979976
31760000 0.0062713609641515695 0.0623372606357757
32240000 0.006408157600640181 0.06306622508963096
32720000 0.006621060935429614 0.06358962492753376
33200000 0.006999299797703656 0.06428033130337454
33680000 0.007148734894691032 0.06492210267426554
34160000 0.0070826566583531035 0.06561204656691057
34640000 0.007403725614009303 0.06655753945152483
35120000 0.007695492941631211 0.06688679443696505
35600000 0.007811054761015059 0.06788963413897625
36080000 0.008183369131869445 0.06825368512561185
36560000 0.008425908603251655 0.06919051941351322
37040000 0.008467738175767795 0.06977768999542729
37520000 0.008885427414043062 0.070758379111709
38000000 0.008830262718059909 0.07115968612511382
38480000 0.009109295597212278 0.07204015002287824
38960000 0.00935724719393489 0.07267445814076044
39440000 0.009545014242704982 0.07327033946510667
39920000 0.010051627473498576 0.07402463540911947
40400000 0.009853132244438928 0.07440820361171623
40880000 0.010632104452635625 0.0750126021561147
41360000 0.010644925699559351 0.07583829242543881
41840000 0.01080432722702197 0.07612574301090805
42320000 0.010857867820894268 0.07648028076702794
42800000 0.011257022210833021 0.0769969237560094
43280000 0.01138220019024784 0.07756706977840447
43760000 0.011538012452176486 0.07799418176180066
44240000 0.011631726976362607 0.07839249109932998
44720000 0.011911419202112796 0.07849076358367683
45200000 0.01181456717271862 0.07902476396949493
45680000 0.011865998558676635 0.07926112924963444
46160000 0.012121695826896426 0.07972489917075705
46640000 0.01183565872239504 0.07949059428980197
47120000 0.011844761763407121 0.07963104592440665
47600000 0.011694131476541133 0.07977201490933297
48080000 0.011279922533984993 0.07967619017373119
48560000 0.010756442675193687 0.07984927342529571
49040000 0.010298474095189053 0.07971086704575107
49520000 0.009147983209892288 0.07957431027839827
50000000 0.007995691706701257 0.0796921536863446
