# Hz S RI R 50
2000000 -0.7403584624232398 -0.010474298712943479
2480000 -0.7405147601282408 -0.0007645199386658253
2960000 -0.7409755419960755 0.007134070450751709
3440000 -0.740901818591227 0.014206721575769018
3920000 -0.7412800636640403 0.020497549098118555
4400000 -0.7408337343989735 0.02624980566598707
4880000 -0.7405229720987987 0.03222058628959694
5360000 -0.740580094815432 0.037718151660510436
5840000 -0.7400396470004897 0.04296340938343271
6320000 -0.7399483934493065 0.04781367730552902
6800000 -0.7387985338159662 0.052855450840242624
7280000 -0.7386327591064911 0.05769073989967749
7760000 -0.7380974653883967 0.06262435145118998
8240000 -0.7372893979193035 0.06725629032947243
8720000 -0.7367748882303167 0.07160318099336274
9200000 -0.7358576930773106 0.07614248596980151
9680000 -0.7355587495518664 0.08042964723938845
10160000 -0.7345158031239354 0.08532304636807955
10640000 -0.7338971274103201 0.08960710032883716
11120000 -0.7331872892286774 0.09411191026839832
11600000 -0.731990808923505 0.09801812882099585
12080000 -0.7314202390986888 0.10239029180851321
12560000 -0.7306012297441269 0.10682703421619952
13040000 -0.7295290427969348 0.11042951562742355
13520000 -0.7289761976735865 0.11482905325998599
14000000 -0.7280962800350786 0.11901261135270652
14480000 -0.7269036899435459 0.12328152415993067
14960000 -0.7261149881535977 0.1270633525351608
15440000 -0.7255216268520078 0.13078626462835316
15920000 -0.7251665647752429 0.13546850207501912
16400000 -0.7237063380339515 0.13970105046320885
16880000 -0.7229260277286439 0.14354028786616516
17360000 -0.7216481478191972 0.14758120590037765
17840000 -0.7205324356369519 0.1514719805402761
18320000 -0.7192077659320408 0.15533336957758065
18800000 -0.7184031103469883 0.15939037491305594
19280000 -0.7173282177368837 0.16342248389904285
19760000 -0.7163081038655905 0.16713345026870177
20240000 -0.7153016425706368 0.17123770652497333
20720000 -0.7140918953689749 0.17507640365649338
21200000 -0.7129403662833869 0.17861599421871635
21680000 -0.7118382909997083 0.18248723966503774
22160000 -0.710555391643866 0.1864725312317372
22640000 -0.7094162966061256 0.19035445074201734
23120000 -0.7083631234176667 0.19402957581114144
23600000 -0.7069847659115401 0.19767943059289844
24080000 -0.7055344660643922 0.20174481595586422
24560000 -0.7045416735057439 0.2054020971913826
25040000 -0.7034243207275153 0.20905797078360533
25520000 -0.7021700766528882 0.21278566022009607
26000000 -0.7008134513910456 0.2165203805769211
26480000 -0.6998217199599545 0.2202833488790606
26960000 -0.6984486351103475 0.22359576093799627
27440000 -0.6971267633248094 0.22739766583450235
27920000 -0.6958993079637289 0.23076142672920516
28400000 -0.6943984003626456 0.23454094195653166
28880000 -0.6930448291233622 0.23845600576624132
29360000 -0.6914194014639469 0.2419510182783515
29840000 -0.6902280281345096 0.24566475748223404
30320000 -0.6886799255945333 0.2493129113612603
30800000 -0.6872332710840032 0.25265442283705686
31280000 -0.6860940531032749 0.2565251357990087
31760000 -0.6846506547551536 0.2601573571416465
32240000 -0.6830672930601422 0.2637290908558719
32720000 -0.6817626829400123 0.2668857918363138
33200000 -0.6802134530222214 0.2704585545082739
33680000 -0.6783807591722629 0.27400743335984556
34160000 -0.6773749005656575 0.27739497164967697
34640000 -0.6755472616969255 0.2811924206799449
35120000 -0.6740039879233756 0.2844855035684185
35600000 -0.6722707541737504 0.2878719609517007
36080000 -0.670782078693779 0.29135680028083977
36560000 -0.6693341612205779 0.2948545430329076
37040000 -0.667808573314203 0.29808243290703457
37520000 -0.6660066609116422 0.30174678319680226
38000000 -0.6644769513908229 0.30502091013770555
38480000 -0.6631378022310046 0.30827006264902507
38960000 -0.6612633634034998 0.3117191944672389
39440000 -0.6595811866397702 0.31511168928869715
39920000 -0.6581277922002939 0.31839584737862736
40400000 -0.6562772977427372 0.32198224378982643
40880000 -0.6547596866393196 0.32529868186009475
41360000 -0.6530747114004701 0.32809477377379825
41840000 -0.6509713415677975 0.3318228382998941
42320000 -0.6495067875213064 0.3352435247955935
42800000 -0.6475151889512932 0.33829155064983407
43280000 -0.645744865570952 0.3415472426730497
43760000 -0.6443643432319928 0.3446406733014996
44240000 -0.6423854132770517 0.3479460717187712
44720000 -0.6403573829872953 0.35121899035315485
45200000 -0.6387449222025608 0.35411478528453466
45680000 -0.6369392896838252 0.35751570529934046
46160000 -0.6352850381851832 0.36064633476996
46640000 -0.6332521019192784 0.3637872015743169
47120000 -0.6310860315743979 0.36675455372241805
47600000 -0.6292372852594559 0.37003052576686823
48080000 -0.6272487474909713 0.3733224360159377
48560000 -0.6253477950358295 0.37610748952906564
49040000 -0.6234096412178111 0.37918950544772984
49520000 -0.6213673119937282 0.38178798987282453
50000000 -0.6192593490169926 0.3851843940221454
