# Hz S RI R 50
2000000 0.00216557783169726 0.0579981486368526
2480000 0.0038889395690561127 0.04884687052859817
2960000 0.005093722029268543 0.0432231059161749
3440000 0.005765631526487116 0.03919189314490304
3920000 0.006423185466291425 0.03672648941494906
4400000 0.006607189238850019 0.035016163741684446
4880000 0.007080764079348258 0.033761225529408134
5360000 0.007134701220424337 0.0328891878596237
5840000 0.007761215900166378 0.032494634621095
6320000 0.00765084368731315 0.03223901929432731
6800000 0.008021053506268713 0.0323209382329352
7280000 0.00817914326307339 0.03218659929998167
7760000 0.008701782049304475 0.0323596179132293
8240000 0.008501041255237011 0.03256548389158569
8720000 0.009019539604158468 0.03293869529812169
9200000 0.009123087174399436 0.033431310121300066
9680000 0.009665986953334588 0.033855013162312236
10160000 0.009521765359033282 0.034354726343832666
10640000 0.010046403311876161 0.03484876035870429
11120000 0.01011401363445514 0.03531430936097101
11600000 0.010573749932613742 0.03611456692497563
12080000 0.010633312446641272 0.03640117287184492
12560000 0.010855472014296843 0.036889956139885896
13040000 0.011063811134660826 0.03707852649418041
13520000 0.011496735344923077 0.037306634027372276
14000000 0.010878092972455492 0.036749048496674125
14480000 0.008811021134415578 0.03478777406202086
14960000 -0.0011467153412237697 0.041713557147099026
15440000 0.007632133540879005 0.048499200266863274
15920000 0.01098586034912573 0.04769835201077805
16400000 0.011928936874915232 0.04733355889618019
16880000 0.01244195734837907 0.04775888964155291
17360000 0.012849124810265147 0.048232517414987616
17840000 0.013190309466331466 0.048830464027590066
18320000 0.013933480935914084 0.04919214845992657
18800000 0.014067047352705944 0.05005162347926268
19280000 0.014289009021757868 0.050786054389717304
19760000 0.014577266629946642 0.0512636280845817
20240000 0.015223819406119577 0.05208195278184269
20720000 0.015419846361754723 0.05293570299564378
21200000 0.015547007299196076 0.053523319850906206
21680000 0.015952047906028572 0.054569881088005076
22160000 0.015968535478343357 0.05502753495394596
22640000 0.016451170253630482 0.05577269124351297
23120000 0.01636643118971816 0.05662653039290533
23600000 0.016870519663756613 0.057724433926404195
24080000 0.017357417167004358 0.05873065034925491
24560000 0.017888192764231675 0.05945492120669008
25040000 0.018051167808716642 0.06040323664681291
25520000 0.01828144177598636 0.061124360055424445
26000000 0.01856369591011483 0.06191384792162336
26480000 0.018849296622444833 0.06261070683065686
26960000 0.01910085717284536 0.0631776726447042
27440000 0.019880807613891043 0.06401307679323634
27920000 0.019990959551449385 0.06484479067243197
28400000 0.020227017534529785 0.06542463032259777
28880000 0.020697360445169826 0.06634028393722378
29360000 0.021107353159480407 0.06723372021758664
29840000 0.021312556329431305 0.06803458788515351
30320000 0.021583720866483327 0.0683120258235646
30800000 0.022141758282673105 0.06945801821209145
31280000 0.022324522908494415 0.07020646980420264
31760000 0.02246386476730913 0.07108144026865701
32240000 0.02292073795931289 0.07191735921932972
32720000 0.023178128861911753 0.0722917123224755
33200000 0.023649879739437215 0.0731400154898485
33680000 0.024032240188236062 0.07372019521932122
34160000 0.024255349201022153 0.07452256445633094
34640000 0.0247328219480207 0.07523763262853495
35120000 0.0252115237866628 0.07580451844329882
35600000 0.025370397081874906 0.0764878209170024
36080000 0.02571216598302723 0.07714475907494116
36560000 0.0257546536919817 0.07803005092928147
37040000 0.026164804283714958 0.07856349095983463
37520000 0.026605799881212377 0.07936278985839237
38000000 0.02667697439527847 0.07984382216606006
38480000 0.027426321903283427 0.0806682970411649
38960000 0.027272241348896345 0.08130133962370445
39440000 0.027677087938453002 0.08202775923600861
39920000 0.028253436247124283 0.08255876255453198
40400000 0.028418831595439897 0.0831951205185365
40880000 0.029135369076744463 0.0834345135231541
41360000 0.029153882388935643 0.08448028433334946
41840000 0.029519162137607538 0.0845075431608008
42320000 0.029875720488371994 0.08505221366725453
42800000 0.030170754427935455 0.0856874162628728
43280000 0.03052849605797405 0.08578919922205402
43760000 0.030559644393191296 0.08615716461885084
44240000 0.031153075164752488 0.08662496710659767
44720000 0.031264670716026496 0.08685540820210107
45200000 0.0313626563555748 0.08706651224050911
45680000 0.031383762070392736 0.0869664904965682
46160000 0.03155127646063769 0.08735050731110001
46640000 0.031490362635072704 0.08717195354545962
47120000 0.03129351777420324 0.08716879652490124
47600000 0.031152665452210765 0.0870455670260531
48080000 0.03095765413711036 0.08657408694408718
48560000 0.030246096129152567 0.08655620706498951
49040000 0.029454862109957597 0.08599647527653004
49520000 0.027641060901076358 0.08574925028677556
50000000 0.025842319507145058 0.08580843559431488
